<Qucs Dataset 0.0.19>
<indep frequency 11>
  +1.00000000000000000000e+09
  +1.90000000000000000000e+09
  +2.80000000000000000000e+09
  +3.70000000000000000000e+09
  +4.60000000000000000000e+09
  +5.50000000000000000000e+09
  +6.40000000000000000000e+09
  +7.30000000000000000000e+09
  +8.20000000000000000000e+09
  +9.10000000000000000000e+09
  +1.00000000000000000000e+10
</indep>
<dep S[1,1] frequency>
  -4.70178009319414280665e-01-j3.44733353714724854999e-02
  -5.41315001419162888929e-01-j4.31177129847634746374e-02
  -5.81846718658568740068e-01-j4.69184496125876204786e-02
  -6.09235917197184062566e-01-j4.83702668989097472885e-02
  -6.29372664762009592643e-01-j4.84651654414913410363e-02
  -6.44937907175753055711e-01-j4.77039030506728189973e-02
  -6.57368013258782801778e-01-j4.63753992268964437828e-02
  -6.67517978089189001345e-01-j4.46615279846065416081e-02
  -6.75936140398325724377e-01-j4.26840777303771970463e-02
  -6.82994466454619364448e-01-j4.05284646328315234509e-02
  -6.88956653757162085228e-01-j3.82567897729372760618e-02
</dep>
<dep S[1,2] frequency>
  +4.73475158086543668201e-01-j4.30042422422128797765e-02
  +3.82256218789742696629e-01-j5.85992262751114864616e-02
  +3.26512930920496158294e-01-j6.88264916689259459437e-02
  +2.86465049103534485919e-01-j7.62511872196328654994e-02
  +2.55278021569154134340e-01-j8.19115721143544445182e-02
  +2.29775104834401167064e-01-j8.63420592829548111391e-02
  +2.08222317465052930707e-01-j8.98573327291967843822e-02
  +1.89570483512980336727e-01-j9.26595849942097871121e-02
  +1.73137248880745803215e-01-j9.48869374342466570527e-02
  +1.58454430053494993436e-01-j9.66381118448998710502e-02
  +1.45187272505754638718e-01-j9.79861600583675218523e-02
</dep>
<dep S[2,1] frequency>
  +4.73475158086543668201e-01-j4.30042422422128797765e-02
  +3.82256218789742696629e-01-j5.85992262751114864616e-02
  +3.26512930920496158294e-01-j6.88264916689259459437e-02
  +2.86465049103534485919e-01-j7.62511872196328654994e-02
  +2.55278021569154134340e-01-j8.19115721143544445182e-02
  +2.29775104834401167064e-01-j8.63420592829548111391e-02
  +2.08222317465052930707e-01-j8.98573327291967843822e-02
  +1.89570483512980336727e-01-j9.26595849942097871121e-02
  +1.73137248880745803215e-01-j9.48869374342466570527e-02
  +1.58454430053494993436e-01-j9.66381118448998710502e-02
  +1.45187272505754638718e-01-j9.79861600583675218523e-02
</dep>
<dep S[2,2] frequency>
  -4.70178009319414280665e-01-j3.44733353714724854999e-02
  -5.41315001419162888929e-01-j4.31177129847634746374e-02
  -5.81846718658568740068e-01-j4.69184496125876204786e-02
  -6.09235917197184062566e-01-j4.83702668989097472885e-02
  -6.29372664762009592643e-01-j4.84651654414913410363e-02
  -6.44937907175753055711e-01-j4.77039030506728189973e-02
  -6.57368013258782801778e-01-j4.63753992268964437828e-02
  -6.67517978089189001345e-01-j4.46615279846065416081e-02
  -6.75936140398325724377e-01-j4.26840777303771970463e-02
  -6.82994466454619364448e-01-j4.05284646328315234509e-02
  -6.88956653757162085228e-01-j3.82567897729372760618e-02
</dep>
