<Qucs Dataset 0.0.19>
<indep frequency 21>
  +1.00000000000000000000e+09
  +1.95000000000000000000e+09
  +2.90000000000000000000e+09
  +3.85000000000000000000e+09
  +4.80000000000000000000e+09
  +5.75000000000000000000e+09
  +6.70000000000000000000e+09
  +7.65000000000000000000e+09
  +8.60000000000000000000e+09
  +9.55000000000000000000e+09
  +1.05000000000000000000e+10
  +1.14500000000000000000e+10
  +1.24000000000000000000e+10
  +1.33500000000000000000e+10
  +1.43000000000000000000e+10
  +1.52500000000000000000e+10
  +1.62000000000000000000e+10
  +1.71500000000000000000e+10
  +1.81000000000000000000e+10
  +1.90500000000000000000e+10
  +2.00000000000000000000e+10
</indep>
<dep dBS11 frequency>
  -6.65418441408946250704e+01
  -6.07535598978938722325e+01
  -5.73267071307605320385e+01
  -5.48938970282818345936e+01
  -5.30147925718931816164e+01
  -5.14908680910106468787e+01
  -5.02154887627696950858e+01
  -4.91247279979885504986e+01
  -4.81772415137519089967e+01
  -4.73447592069652358759e+01
  -4.66071101960016278554e+01
  -4.59494119956849402797e+01
  -4.53603841728955714530e+01
  -4.48312865909671316444e+01
  -4.43552238515124912510e+01
  -4.39266742751874375017e+01
  -4.35411618667763562485e+01
  -4.31950223319623489715e+01
  -4.28852327294965647297e+01
  -4.26092852653368865390e+01
  -4.23650923988844567702e+01
</dep>
<dep dBS21 frequency>
  -9.62941593174162812133e-07
  -3.65114015200222561682e-06
  -8.03737071437680660455e-06
  -1.40732794728614812884e-05
  -2.16923268086275180828e-05
  -3.08105210371007647366e-05
  -4.13273445876478302059e-05
  -5.31268624009717266993e-05
  -6.60790002836378885000e-05
  -8.00409791265088471808e-05
  -9.48588891758471745505e-05
  -1.10369386930857119131e-04
  -1.26401496025076073284e-04
  -1.42778492130881220264e-04
  -1.59319851198965015430e-04
  -1.75843239459783562059e-04
  -1.92166523305274347146e-04
  -2.08109776855290541306e-04
  -2.23497265130803669190e-04
  -2.38159380898267890574e-04
  -2.51934513959776041746e-04
</dep>
<dep Zl frequency>
  +4.99973760359534367126e+01-j4.70133348452937346873e-02
  +4.99900522937693665426e+01-j9.11396452809085516611e-02
  +4.99781070201316239832e+01-j1.34236139669389381579e-01
  +4.99616783934728800887e+01-j1.75816934011709946617e-01
  +4.99409561392757765930e+01-j2.15414466752244099235e-01
  +4.99161790484534435564e+01-j2.52585063182425240136e-01
  +4.98876318774697509184e+01-j2.86914143907402163780e-01
  +4.98556416861018050213e+01-j3.18021005849786819741e-01
  +4.98205736773763021574e+01-j3.45563114042828911643e-01
  +4.97828266109486605728e+01-j3.69239853295551867518e-01
  +4.97428278659296978503e+01-j3.88795700301989677339e-01
  +4.97010282318644485144e+01-j4.04022788516289865779e-01
  +4.96578965072913049994e+01-j4.14762849741681038918e-01
  +4.96139139841797103259e+01-j4.20908527531544007783e-01
  +4.95695688937584577616e+01-j4.22404067867234833678e-01
  +4.95253508850395931518e+01-j4.19245401911582993293e-01
  +4.94817456019987176319e+01-j4.11479643750275236869e-01
  +4.94392294191786163537e+01-j3.99204032806678987821e-01
  +4.93982643887450905140e+01-j3.82564355994935267891e-01
  +4.93592934450260472090e+01-j3.61752888668269712014e-01
  +4.93227359055779928099e+01-j3.37005896089265399862e-01
</dep>
<dep S[1,1] frequency>
  -2.60192862862052382781e-05-j4.70157917761847548438e-04
  -9.86560682336313089346e-05-j9.11577048606582954898e-04
  -2.17174624557645961883e-04-j1.34294693462828278012e-03
  -3.80268269796120027444e-04-j1.75951218946811911367e-03
  -5.86138884075799917323e-04-j2.15668068301274511514e-03
  -8.32516749468130618818e-04-j2.53007417703192231950e-03
  -1.11668558794973476166e-03-j2.87557659940549563762e-03
  -1.43551252413221647718e-03-j3.18937942422684332297e-03
  -1.78548264153647077632e-03-j3.46802365716084026737e-03
  -2.16273775048812007954e-03-j3.70843796305782725381e-03
  -2.56311893926840532118e-03-j3.90797251556656080607e-03
  -2.98221243847816234324e-03-j4.06442819585807468830e-03
  -3.41539829212177039469e-03-j4.17608081904352872876e-03
  -3.85790129809369724753e-03-j4.24170012186642509527e-03
  -4.30484365587887381904e-03-j4.26056330314796612851e-03
  -4.75129874064192988387e-03-j4.23246296863872498856e-03
  -5.19234541066168620027e-03-j4.15770939368973694444e-03
  -5.62312224939990040057e-03-j4.03712707983010406221e-03
  -6.03888114443384797780e-03-j3.87204564423425769484e-03
  -6.43503961299954439085e-03-j3.66428514347686340100e-03
  -6.80723129790591213739e-03-j3.41613599423259408847e-03
</dep>
<dep S[1,2] frequency>
  +9.98472052141908483769e-01-j5.52570300147848664229e-02
  +9.94194129639431101175e-01-j1.07597360026902177932e-01
  +9.87174223751167145835e-01-j1.59640850943590373312e-01
  +9.77431717300169644602e-01-j2.11243928974395145381e-01
  +9.64993509771858049007e-01-j2.62264239399562448796e-01
  +9.49893942307841077088e-01-j3.12561040450322791262e-01
  +9.32174701981510200888e-01-j3.61995592594994475277e-01
  +9.11884705644778970068e-01-j4.10431542128302240258e-01
  +8.89079963695930008960e-01-j4.57735297981370248266e-01
  +8.63823424177416976377e-01-j5.03776400693501380523e-01
  +8.36184797669402235520e-01-j5.48427882513919495722e-01
  +8.06240363499579060225e-01-j5.91566617631927860188e-01
  +7.74072757842211078838e-01-j6.33073661567161272146e-01
  +7.39770744329188101318e-01-j6.72834578787601778060e-01
  +7.03428967843073849053e-01-j7.10739757661456694748e-01
  +6.65147692206543350579e-01-j7.46684711889701091536e-01
  +6.25032522524162970079e-01-j7.80570367608722115449e-01
  +5.83194112971145872670e-01-j8.12303335396887371544e-01
  +5.39747860859471240147e-01-j8.41796166464707118493e-01
  +4.94813587844632751800e-01-j8.68967592355370022084e-01
  +4.48515209166270967245e-01-j8.93742747530553161006e-01
</dep>
<dep S[2,1] frequency>
  +9.98472052141908483769e-01-j5.52570300147848664229e-02
  +9.94194129639431101175e-01-j1.07597360026902177932e-01
  +9.87174223751167145835e-01-j1.59640850943590373312e-01
  +9.77431717300169644602e-01-j2.11243928974395145381e-01
  +9.64993509771858049007e-01-j2.62264239399562448796e-01
  +9.49893942307841077088e-01-j3.12561040450322791262e-01
  +9.32174701981510200888e-01-j3.61995592594994475277e-01
  +9.11884705644778970068e-01-j4.10431542128302240258e-01
  +8.89079963695930008960e-01-j4.57735297981370248266e-01
  +8.63823424177416976377e-01-j5.03776400693501380523e-01
  +8.36184797669402235520e-01-j5.48427882513919495722e-01
  +8.06240363499579060225e-01-j5.91566617631927860188e-01
  +7.74072757842211078838e-01-j6.33073661567161272146e-01
  +7.39770744329188101318e-01-j6.72834578787601778060e-01
  +7.03428967843073849053e-01-j7.10739757661456694748e-01
  +6.65147692206543350579e-01-j7.46684711889701091536e-01
  +6.25032522524162970079e-01-j7.80570367608722115449e-01
  +5.83194112971145872670e-01-j8.12303335396887371544e-01
  +5.39747860859471240147e-01-j8.41796166464707118493e-01
  +4.94813587844632751800e-01-j8.68967592355370022084e-01
  +4.48515209166270967245e-01-j8.93742747530553161006e-01
</dep>
<dep S[2,2] frequency>
  -2.60192862862052382781e-05-j4.70157917761847548438e-04
  -9.86560682336313089346e-05-j9.11577048606582954898e-04
  -2.17174624557645961883e-04-j1.34294693462828278012e-03
  -3.80268269796120027444e-04-j1.75951218946811911367e-03
  -5.86138884075799917323e-04-j2.15668068301274511514e-03
  -8.32516749468130618818e-04-j2.53007417703192231950e-03
  -1.11668558794973476166e-03-j2.87557659940549563762e-03
  -1.43551252413221647718e-03-j3.18937942422684332297e-03
  -1.78548264153647077632e-03-j3.46802365716084026737e-03
  -2.16273775048812007954e-03-j3.70843796305782725381e-03
  -2.56311893926840532118e-03-j3.90797251556656080607e-03
  -2.98221243847816234324e-03-j4.06442819585807468830e-03
  -3.41539829212177039469e-03-j4.17608081904352872876e-03
  -3.85790129809369724753e-03-j4.24170012186642509527e-03
  -4.30484365587887381904e-03-j4.26056330314796612851e-03
  -4.75129874064192988387e-03-j4.23246296863872498856e-03
  -5.19234541066168620027e-03-j4.15770939368973694444e-03
  -5.62312224939990040057e-03-j4.03712707983010406221e-03
  -6.03888114443384797780e-03-j3.87204564423425769484e-03
  -6.43503961299954439085e-03-j3.66428514347686340100e-03
  -6.80723129790591213739e-03-j3.41613599423259408847e-03
</dep>
