# HZ S RI R 50
1.00000000000000000000e+08 -1.14186180335944569497e-05 -3.01022287705798657301e-04 +9.99876043002710046537e-01 -3.42110264206809495599e-03 +9.99876043002710046537e-01 -3.42110264206809495599e-03 -1.14186180335944569497e-05 -3.01022287705798657301e-04
1.99000000000000000000e+08 -2.00881825760637253674e-05 -5.98952815894988757975e-04 +9.99794700960260906974e-01 -6.80752397233855884723e-03 +9.99794700960260906974e-01 -6.80752397233855884723e-03 -2.00881825760637253674e-05 -5.98952815894988757975e-04
2.98000000000000000000e+08 -3.00101896134442820739e-05 -8.96810779891761469113e-04 +9.99710499731162438586e-01 -1.01935329926518165877e-02 +9.99710499731162438586e-01 -1.01935329926518165877e-02 -3.00101896134442820739e-05 -8.96810779891761469113e-04
3.97000000000000000000e+08 -4.15521232833174379768e-05 -1.19459399981344566340e-03 +9.99619260161363265560e-01 -1.35791271843353766879e-02 +9.99619260161363265560e-01 -1.35791271843353766879e-02 -4.15521232833174379768e-05 -1.19459399981344566340e-03
4.96000000000000000000e+08 -5.48566749683074264998e-05 -1.49229755423991423090e-03 +9.99519357586273526906e-01 -1.69642902331718116449e-02 +9.99519357586273526906e-01 -1.69642902331718116449e-02 -5.48566749683074264998e-05 -1.49229755423991423090e-03
5.95000000000000000000e+08 -6.99969606280771917050e-05 -1.78991519844144122628e-03 +9.99409957928438785757e-01 -2.03489995643664906000e-02 +9.99409957928438785757e-01 -2.03489995643664906000e-02 -6.99969606280771917050e-05 -1.78991519844144122628e-03
6.94000000000000000000e+08 -8.70162822914965832996e-05 -2.08743989957926607409e-03 +9.99290565808217068344e-01 -2.37332290891979005854e-02 +9.99290565808217068344e-01 -2.37332290891979005854e-02 -8.70162822914965832996e-05 -2.08743989957926607409e-03
7.93000000000000000000e+08 -1.05942708329824058491e-04 -2.38486409681218890222e-03 +9.99160858817462860237e-01 -2.71169504955592888251e-02 +9.99160858817462860237e-01 -2.71169504955592888251e-02 -1.05942708329824058491e-04 -2.38486409681218890222e-03
8.92000000000000000000e+08 -1.26795588734067486789e-04 -2.68217984751524442938e-03 +9.99020613449667416184e-01 -3.05001339497217756336e-02 +9.99020613449667416184e-01 -3.05001339497217756336e-02 -1.26795588734067486789e-04 -2.68217984751524442938e-03
9.91000000000000000000e+08 -1.49588867464624144642e-04 -2.97937891781899655969e-03 +9.98869667433076924290e-01 -3.38827485168956832329e-02 +9.98869667433076924290e-01 -3.38827485168956832329e-02 -1.49588867464624144642e-04 -2.97937891781899655969e-03
1.09000000000000000000e+09 -1.74332928519011458443e-04 -3.27645284270157649900e-03 +9.98707898730455956304e-01 -3.72647624315508643744e-02 +9.98707898730455956304e-01 -3.72647624315508643744e-02 -1.74332928519011458443e-04 -3.27645284270157649900e-03
1.18900000000000000000e+09 -2.01035698464619057291e-04 -3.57339296801948086771e-03 +9.98535212991335519028e-01 -4.06461432806438441312e-02 +9.98535212991335519028e-01 -4.06461432806438441312e-02 -2.01035698464619057291e-04 -3.57339296801948086771e-03
1.28800000000000000000e+09 -2.29703341498809583601e-04 -3.87019048113778057346e-03 +9.98351535637090226061e-01 -4.40268581331098585174e-02 +9.98351535637090226061e-01 -4.40268581331098585174e-02 -2.29703341498809583601e-04 -3.87019048113778057346e-03
1.38700000000000000000e+09 -2.60340717120540973174e-04 -4.16683643400241228438e-03 +9.98156806645534189215e-01 -4.74068736345237343177e-02 +9.98156806645534189215e-01 -4.74068736345237343177e-02 -2.60340717120540973174e-04 -4.16683643400241228438e-03
1.48600000000000000000e+09 -2.92951692476603952568e-04 -4.46332176099808845826e-03 +9.97950976988476456953e-01 -5.07861560782583987272e-02 +9.97950976988476456953e-01 -5.07861560782583987272e-02 -2.92951692476603952568e-04 -4.46332176099808845826e-03
1.58500000000000000000e+09 -3.27539362016696468990e-04 -4.75963729308876305063e-03 +9.97734006123836891788e-01 -5.41646714602488019152e-02 +9.97734006123836891788e-01 -5.41646714602488019152e-02 -3.27539362016696468990e-04 -4.75963729308876305063e-03
1.68400000000000000000e+09 -3.64106205949985093241e-04 -5.05577376923292947514e-03 +9.97505860184226267329e-01 -5.75423855219921800974e-02 +9.97505860184226267329e-01 -5.75423855219921800974e-02 -3.64106205949985093241e-04 -5.05577376923292947514e-03
1.78300000000000000000e+09 -4.02654207085347904185e-04 -5.35172184575371124443e-03 +9.97266510639308711994e-01 -6.09192637849033241659e-02 +9.97266510639308711994e-01 -6.09192637849033241659e-02 -4.02654207085347904185e-04 -5.35172184575371124443e-03
1.88200000000000000000e+09 -4.43184938639967188241e-04 -5.64747210414234986076e-03 +9.97015933288795119793e-01 -6.42952715781818506802e-02 +9.97015933288795119793e-01 -6.42952715781818506802e-02 -4.43184938639967188241e-04 -5.64747210414234986076e-03
1.98100000000000000000e+09 -4.85699631338754576632e-04 -5.94301505764022446748e-03 +9.96754107491397922658e-01 -6.76703740617216331632e-02 +9.96754107491397922658e-01 -6.76703740617216331632e-02 -4.85699631338754576632e-04 -5.94301505764022446748e-03
2.08000000000000000000e+09 -5.30199225448174746994e-04 -6.23834115685342922852e-03 +9.96481015565524486099e-01 -7.10445362451696399431e-02 +9.96481015565524486099e-01 -7.10445362451696399431e-02 -5.30199225448174746994e-04 -6.23834115685342922852e-03
2.17900000000000000000e+09 -5.76684411657224851866e-04 -6.53344079459083296874e-03 +9.96196642317177305515e-01 -7.44177230039518577964e-02 +9.96196642317177305515e-01 -7.44177230039518577964e-02 -5.76684411657224851866e-04 -6.53344079459083296874e-03
2.27800000000000000000e+09 -6.25155663572316087212e-04 -6.82830431007072462257e-03 +9.95900974663564086953e-01 -7.77898990928786587817e-02 +9.95900974663564086953e-01 -7.77898990928786587817e-02 -6.25155663572316087212e-04 -6.82830431007072462257e-03
2.37700000000000000000e+09 -6.75613263817423782658e-04 -7.12292199260888304890e-03 +9.95594001329740518891e-01 -8.11610291577976039612e-02 +9.95594001329740518891e-01 -8.11610291577976039612e-02 -6.75613263817423782658e-04 -7.12292199260888304890e-03
2.47600000000000000000e+09 -7.28057325195711666464e-04 -7.41728408487585168934e-03 +9.95275712601692119641e-01 -8.45310777456522999262e-02 +9.95275712601692119641e-01 -8.45310777456522999262e-02 -7.28057325195711666464e-04 -7.41728408487585168934e-03
2.57500000000000000000e+09 -7.82487807993126186813e-04 -7.71138078579401177459e-03 +9.94946100123549670435e-01 -8.79000093132307896981e-02 +9.94946100123549670435e-01 -8.79000093132307896981e-02 -7.82487807993126186813e-04 -7.71138078579401177459e-03
2.67400000000000000000e+09 -8.38904534236123563748e-04 -8.00520225313016038637e-03 +9.94605156729672867932e-01 -9.12677882348243152411e-02 +9.94605156729672867932e-01 -9.12677882348243152411e-02 -8.38904534236123563748e-04 -8.00520225313016038637e-03
2.77300000000000000000e+09 -8.97307199521542157329e-04 -8.29873860582955660825e-03 +9.94252876304556054698e-01 -9.46343788089747950387e-02 +9.94252876304556054698e-01 -9.46343788089747950387e-02 -8.97307199521542157329e-04 -8.29873860582955660825e-03
2.87200000000000000000e+09 -9.57695382893954984260e-04 -8.59197992612819975988e-03 +9.93889253665136584992e-01 -9.79997452644541244826e-02 +9.93889253665136584992e-01 -9.79997452644541244826e-02 -9.57695382893954984260e-04 -8.59197992612819975988e-03
2.97100000000000000000e+09 -1.02006855514000477174e-03 -8.88491626147470091313e-03 +9.93514284461276431237e-01 -1.01363851765590887166e-01 +9.93514284461276431237e-01 -1.01363851765590887166e-01 -1.02006855514000477174e-03 -8.88491626147470091313e-03
3.07000000000000000000e+09 -1.08442608578947479597e-03 -9.17753762628663490031e-03 +9.93127965091121556185e-01 -1.04726662417040497499e-01 +9.93127965091121556185e-01 -1.04726662417040497499e-01 -1.08442608578947479597e-03 -9.17753762628663490031e-03
3.16900000000000000000e+09 -1.15076724905245988441e-03 -9.46983400356314793112e-03 +9.92730292628706156854e-01 -1.08088141268077017609e-01 +9.92730292628706156854e-01 -1.08088141268077017609e-01 -1.15076724905245988441e-03 -9.46983400356314793112e-03
3.26800000000000000000e+09 -1.21909122887560125194e-03 -9.76179534637182724777e-03 +9.92321264761715227110e-01 -1.11448252316471554946e-01 +9.92321264761715227110e-01 -1.11448252316471554946e-01 -1.21909122887560125194e-03 -9.76179534637182724777e-03
3.36700000000000000000e+09 -1.28939712326440135935e-03 -1.00534115792248468502e-02 +9.91900879737721452578e-01 -1.14806959512012682345e-01 +9.91900879737721452578e-01 -1.14806959512012682345e-01 -1.28939712326440135935e-03 -1.00534115792248468502e-02
3.46600000000000000000e+09 -1.36168394799068837031e-03 -1.03446725993577258451e-02 +9.91469136317536414715e-01 -1.18164226759714358073e-01 +9.91469136317536414715e-01 -1.18164226759714358073e-01 -1.36168394799068837031e-03 -1.03446725993577258451e-02
3.56500000000000000000e+09 -1.43595063978220016492e-03 -1.06355682779216247080e-02 +9.91026033734555666932e-01 -1.21520017922749912209e-01 +9.91026033734555666932e-01 -1.21520017922749912209e-01 -1.43595063978220016492e-03 -1.06355682779216247080e-02
3.66400000000000000000e+09 -1.51219605907382975175e-03 -1.09260884610990274823e-02 +9.90571571659198513160e-01 -1.24874296825146169354e-01 +9.90571571659198513160e-01 -1.24874296825146169354e-01 -1.51219605907382975175e-03 -1.09260884610990274823e-02
3.76300000000000000000e+09 -1.59041899238607925549e-03 -1.12162229711509492391e-02 +9.90105750167677767237e-01 -1.28227027254264519529e-01 +9.90105750167677767237e-01 -1.28227027254264519529e-01 -1.59041899238607925549e-03 -1.12162229711509492391e-02
3.86200000000000000000e+09 -1.67061815438511343350e-03 -1.15059616074029615745e-02 +9.89628569714484540576e-01 -1.31578172963094791603e-01 +9.89628569714484540576e-01 -1.31578172963094791603e-01 -1.67061815438511343350e-03 -1.15059616074029615745e-02
3.96100000000000000000e+09 -1.75279218966976142909e-03 -1.17952941471766263593e-02 +9.89140031108057371512e-01 -1.34927697672381718963e-01 +9.89140031108057371512e-01 -1.34927697672381718963e-01 -1.75279218966976142909e-03 -1.17952941471766263593e-02
4.06000000000000000000e+09 -1.83693967432335377235e-03 -1.20842103466714152760e-02 +9.88640135489211258069e-01 -1.38275565072602746319e-01 +9.88640135489211258069e-01 -1.38275565072602746319e-01 -1.83693967432335377235e-03 -1.20842103466714152760e-02
4.15900000000000000000e+09 -1.92305911726237859297e-03 -1.23726999418023123761e-02 +9.88128884311944566399e-01 -1.41621738825812165663e-01 +9.88128884311944566399e-01 -1.41621738825812165663e-01 -1.92305911726237859297e-03 -1.23726999418023123761e-02
4.25800000000000000000e+09 -2.01114896140898490387e-03 -1.26607526489976099371e-02 +9.87606279326323943657e-01 -1.44966182567366708156e-01 +9.87606279326323943657e-01 -1.44966182567366708156e-01 -2.01114896140898490387e-03 -1.26607526489976099371e-02
4.35700000000000000000e+09 -2.10120758471014782223e-03 -1.29483581659601346137e-02 +9.87072322563176340893e-01 -1.48308859907543666434e-01 +9.87072322563176340893e-01 -1.48308859907543666434e-01 -2.10120758471014782223e-03 -1.29483581659601346137e-02
4.45600000000000000000e+09 -2.19323330102308509254e-03 -1.32355061723959423203e-02 +9.86527016320366323399e-01 -1.51649734433061400551e-01 +9.86527016320366323399e-01 -1.51649734433061400551e-01 -2.19323330102308509254e-03 -1.32355061723959423203e-02
4.55500000000000000000e+09 -2.28722436088357045092e-03 -1.35221863307129364778e-02 +9.85970363150462381086e-01 -1.54988769708513968171e-01 +9.85970363150462381086e-01 -1.54988769708513968171e-01 -2.28722436088357045092e-03 -1.35221863307129364778e-02
4.65400000000000000000e+09 -2.38317895217152273674e-03 -1.38083882866926986599e-02 +9.85402365849627814853e-01 -1.58325929277725596656e-01 +9.85402365849627814853e-01 -1.58325929277725596656e-01 -2.38317895217152273674e-03 -1.38083882866926986599e-02
4.75300000000000000000e+09 -2.48109520068613177701e-03 -1.40941016701374537134e-02 +9.84823027447595755746e-01 -1.61661176665033906596e-01 +9.84823027447595755746e-01 -1.61661176665033906596e-01 -2.48109520068613177701e-03 -1.40941016701374537134e-02
4.85200000000000000000e+09 -2.58097117064127199240e-03 -1.43793160954948078672e-02 +9.84232351198597643638e-01 -1.64994475376507743203e-01 +9.84232351198597643638e-01 -1.64994475376507743203e-01 -2.58097117064127199240e-03 -1.43793160954948078672e-02
4.95100000000000000000e+09 -2.68280486509032273235e-03 -1.46640211624616354641e-02 +9.83630340573147132766e-01 -1.68325788901105610762e-01 +9.83630340573147132766e-01 -1.68325788901105610762e-01 -2.68280486509032273235e-03 -1.46640211624616354641e-02
5.05000000000000000000e+09 -2.78659422628856805540e-03 -1.49482064565696348701e-02 +9.83016999250576284375e-01 -1.71655080711780011482e-01 +9.83016999250576284375e-01 -1.71655080711780011482e-01 -2.78659422628856805540e-03 -1.49482064565696348701e-02
5.14900000000000000000e+09 -2.89233713600006367428e-03 -1.52318615497535718439e-02 +9.82392331112250216663e-01 -1.74982314266531963076e-01 +9.82392331112250216663e-01 -1.74982314266531963076e-01 -2.89233713600006367428e-03 -1.52318615497535718439e-02
5.24800000000000000000e+09 -3.00003141575515492115e-03 -1.55149760009039468234e-02 +9.81756340235383828663e-01 -1.78307453009420580070e-01 +9.81756340235383828663e-01 -1.78307453009420580070e-01 -3.00003141575515492115e-03 -1.55149760009039468234e-02
5.34700000000000000000e+09 -3.10967482706399475298e-03 -1.57975393564053663564e-02 +9.81109030887400201948e-01 -1.81630460371530605412e-01 +9.81109030887400201948e-01 -1.81630460371530605412e-01 -3.10967482706399475298e-03 -1.57975393564053663564e-02
5.44600000000000000000e+09 -3.22126507159080322992e-03 -1.60795411506619474740e-02 +9.80450407520775724102e-01 -1.84951299771902166746e-01 +9.80450407520775724102e-01 -1.84951299771902166746e-01 -3.22126507159080322992e-03 -1.60795411506619474740e-02
5.54500000000000000000e+09 -3.33479979129291210713e-03 -1.63609709066102754216e-02 +9.79780474768321085755e-01 -1.88269934618425088813e-01 +9.79780474768321085755e-01 -1.88269934618425088813e-01 -3.33479979129291210713e-03 -1.63609709066102754216e-02
5.64400000000000000000e+09 -3.45027656852851284663e-03 -1.66418181362221959119e-02 +9.79099237438857405991e-01 -1.91586328308701203671e-01 +9.79099237438857405991e-01 -1.91586328308701203671e-01 -3.45027656852851284663e-03 -1.66418181362221959119e-02
5.74300000000000000000e+09 -3.56769292613599462924e-03 -1.69220723409965814743e-02 +9.78406700513247962192e-01 -1.94900444230876129792e-01 +9.78406700513247962192e-01 -1.94900444230876129792e-01 -3.56769292613599462924e-03 -1.69220723409965814743e-02
5.84200000000000000000e+09 -3.68704632748819002494e-03 -1.72017230124429723603e-02 +9.77702869140752550692e-01 -1.98212245764444960905e-01 +9.77702869140752550692e-01 -1.98212245764444960905e-01 -3.68704632748819002494e-03 -1.72017230124429723603e-02
5.94100000000000000000e+09 -3.80833417652361042385e-03 -1.74807596325557111638e-02 +9.76987748635673503017e-01 -2.01521696281030893161e-01 +9.76987748635673503017e-01 -2.01521696281030893161e-01 -3.80833417652361042385e-03 -1.74807596325557111638e-02
6.04000000000000000000e+09 -3.93155381775741642747e-03 -1.77591716742813224283e-02 +9.76261344474266157256e-01 -2.04828759145141675591e-01 +9.76261344474266157256e-01 -2.04828759145141675591e-01 -3.93155381775741642747e-03 -1.77591716742813224283e-02
6.13900000000000000000e+09 -4.05670253627380631573e-03 -1.80369486019782906960e-02 +9.75523662291893578491e-01 -2.08133397714903606301e-01 +9.75523662291893578491e-01 -2.08133397714903606301e-01 -4.05670253627380631573e-03 -1.80369486019782906960e-02
6.23800000000000000000e+09 -4.18377755770187303302e-03 -1.83140798718707149828e-02 +9.74774707880394775117e-01 -2.11435575342775489149e-01 +9.74774707880394775117e-01 -2.11435575342775489149e-01 -4.18377755770187303302e-03 -1.83140798718707149828e-02
6.33700000000000000000e+09 -4.31277604817635953904e-03 -1.85905549324957564128e-02 +9.74014487185659749713e-01 -2.14735255376244021930e-01 +9.74014487185659749713e-01 -2.14735255376244021930e-01 -4.31277604817635953904e-03 -1.85905549324957564128e-02
6.43600000000000000000e+09 -4.44369511428509104956e-03 -1.88663632251464576106e-02 +9.73243006305383850929e-01 -2.18032401158502198157e-01 +9.73243006305383850929e-01 -2.18032401158502198157e-01 -4.44369511428509104956e-03 -1.88663632251464576106e-02
6.53500000000000000000e+09 -4.57653180300397321306e-03 -1.91414941843087819950e-02 +9.72460271486989213940e-01 -2.21326976029110944477e-01 +9.72460271486989213940e-01 -2.21326976029110944477e-01 -4.57653180300397321306e-03 -1.91414941843087819950e-02
6.63400000000000000000e+09 -4.71128310162115000043e-03 -1.94159372380950552561e-02 +9.71666289125701077012e-01 -2.24618943324645742310e-01 +9.71666289125701077012e-01 -2.24618943324645742310e-01 -4.71128310162115000043e-03 -1.94159372380950552561e-02
6.73300000000000000000e+09 -4.84794593765119994494e-03 -1.96896818086731394126e-02 +9.70861065762763542075e-01 -2.27908266379330703977e-01 +9.70861065762763542075e-01 -2.27908266379330703977e-01 -4.84794593765119994494e-03 -1.96896818086731394126e-02
6.83200000000000000000e+09 -4.98651717874027365640e-03 -1.99627173126918529278e-02 +9.70044608083784343222e-01 -2.31194908525657605303e-01 +9.70044608083784343222e-01 -2.31194908525657605303e-01 -4.98651717874027365640e-03 -1.99627173126918529278e-02
6.93100000000000000000e+09 -5.12699363256329671001e-03 -2.02350331617036048593e-02 +9.69216922917199075194e-01 -2.34478833094995231523e-01 +9.69216922917199075194e-01 -2.34478833094995231523e-01 -5.12699363256329671001e-03 -2.02350331617036048593e-02
7.03000000000000000000e+09 -5.26937204671375572507e-03 -2.05066187625837469122e-02 +9.68378017232842780437e-01 -2.37760003418185289492e-01 +9.68378017232842780437e-01 -2.37760003418185289492e-01 -5.26937204671375572507e-03 -2.05066187625837469122e-02
7.12900000000000000000e+09 -5.41364910858697836321e-03 -2.07774635179475107571e-02 +9.67527898140624009748e-01 -2.41038382826129465863e-01 +9.67527898140624009748e-01 -2.41038382826129465863e-01 -5.41364910858697836321e-03 -2.07774635179475107571e-02
7.22800000000000000000e+09 -5.55982144525752480790e-03 -2.10475568265647387800e-02 +9.66666572889290365289e-01 -2.44313934650366049173e-01 +9.66666572889290365289e-01 -2.44313934650366049173e-01 -5.55982144525752480790e-03 -2.10475568265647387800e-02
7.32700000000000000000e+09 -5.70788562335128660252e-03 -2.13168880837726233690e-02 +9.65794048865279419758e-01 -2.47586622223637642382e-01 +9.65794048865279419758e-01 -2.47586622223637642382e-01 -5.70788562335128660252e-03 -2.13168880837726233690e-02
7.42600000000000000000e+09 -5.85783814891279158016e-03 -2.15854466818865414757e-02 +9.64910333591650792862e-01 -2.50856408880450798549e-01 +9.64910333591650792862e-01 -2.50856408880450798549e-01 -5.85783814891279158016e-03 -2.15854466818865414757e-02
7.52500000000000000000e+09 -6.00967546726835586540e-03 -2.18532220106097269108e-02 +9.64015434727087394684e-01 -2.54123257957626857984e-01 +9.64015434727087394684e-01 -2.54123257957626857984e-01 -6.00967546726835586540e-03 -2.18532220106097269108e-02
7.62400000000000000000e+09 -6.16339396288532233997e-03 -2.21202034574411454670e-02 +9.63109360064969277637e-01 -2.57387132794846318351e-01 +9.63109360064969277637e-01 -2.57387132794846318351e-01 -6.16339396288532233997e-03 -2.21202034574411454670e-02
7.72300000000000000000e+09 -6.31898995922813670745e-03 -2.23863804080830439136e-02 +9.62192117532505220012e-01 -2.60647996735186238126e-01 +9.62192117532505220012e-01 -2.60647996735186238126e-01 -6.31898995922813670745e-03 -2.23863804080830439136e-02
7.82200000000000000000e+09 -6.47645971861123340152e-03 -2.26517422468468510033e-02 +9.61263715189928147353e-01 -2.63905813125651200757e-01 +9.61263715189928147353e-01 -2.63905813125651200757e-01 -6.47645971861123340152e-03 -2.26517422468468510033e-02
