# HZ S RI R 50
1.00000000000000000000e+09 -2.60225326997985441379e-05 -4.70216082398472131655e-04 +9.98472048893896291233e-01 -5.52570882085607964496e-02 +9.98472048893896291233e-01 -5.52570882085607964496e-02 -2.60225326997985441379e-05 -4.70216082398472131655e-04
1.95000000000000000000e+09 -9.86970199296801465423e-05 -9.11952216719199822495e-04 +9.94194088610957926733e-01 -1.07597735910564012984e-01 +9.94194088610957926733e-01 -1.07597735910564012984e-01 -9.86970199296801465423e-05 -9.11952216719199822495e-04
2.90000000000000000000e+09 -2.17358775570402322106e-04 -1.34407587588996225297e-03 +9.87174038835155087668e-01 -1.59641984656575114387e-01 +9.87174038835155087668e-01 -1.59641984656575114387e-01 -2.17358775570402322106e-04 -1.34407587588996225297e-03
3.85000000000000000000e+09 -3.80805198177303842310e-04 -1.76197490265596443289e-03 +9.77431176430445081138e-01 -2.11246410084620306336e-01 +9.77431176430445081138e-01 -2.11246410084620306336e-01 -3.80805198177303842310e-04 -1.76197490265596443289e-03
4.80000000000000000000e+09 -5.87369621515350381902e-04 -2.16116894093452711206e-03 +9.64992264945210065363e-01 -2.62268779959891340514e-01 +9.64992264945210065363e-01 -2.62268779959891340514e-01 -5.87369621515350381902e-04 -2.16116894093452711206e-03
5.75000000000000000000e+09 -8.34935798442712094267e-04 -2.53735912817160211979e-03 +9.49891483359128319108e-01 -3.12568447756106759794e-01 +9.49891483359128319108e-01 -3.12568447756106759794e-01 -8.34935798442712094267e-04 -2.53735912817160211979e-03
6.70000000000000000000e+09 -1.12095746792049738745e-03 -2.88647469876838601993e-03 +9.32170333977832110683e-01 -3.62006740503302393286e-01 +9.32170333977832110683e-01 -3.62006740503302393286e-01 -1.12095746792049738745e-03 -2.88647469876838601993e-03
7.65000000000000000000e+09 -1.44248263603779765599e-03 -3.20471683671780553301e-03 +9.11877529933995956135e-01 -4.10447340636183655160e-01 +9.11877529933995956135e-01 -4.10447340636183655160e-01 -1.44248263603779765599e-03 -3.20471683671780553301e-03
8.60000000000000000000e+09 -1.79618225778478777382e-03 -3.48859962707736767640e-03 +8.89068862707792617606e-01 -4.57756661082513172101e-01 +8.89068862707792617606e-01 -4.57756661082513172101e-01 -1.79618225778478777382e-03 -3.48859962707736767640e-03
9.55000000000000000000e+09 -2.17838300387112378947e-03 -3.73498781701604330371e-03 +8.63807050093922001999e-01 -5.03804212687360863931e-01 +8.63807050093922001999e-01 -5.03804212687360863931e-01 -2.17838300387112378947e-03 -3.73498781701604330371e-03
1.05000000000000000000e+10 -2.58510377532180724361e-03 -3.94113105966315945689e-03 +8.36161565077150559233e-01 -5.48462963026831618052e-01 +8.36161565077150559233e-01 -5.48462963026831618052e-01 -2.58510377532180724361e-03 -3.94113105966315945689e-03
1.14500000000000000000e+10 -3.01209560051160334104e-03 -4.10469431537792764364e-03 +8.06208446120838861937e-01 -5.91609685661157236325e-01 +8.06208446120838861937e-01 -5.91609685661157236325e-01 -3.01209560051160334104e-03 -4.10469431537792764364e-03
1.24000000000000000000e+10 -3.45488451984101666709e-03 -4.22378410482999663844e-03 +7.74030089418223377074e-01 -6.33125298891149546066e-01 +7.74030089418223377074e-01 -6.33125298891149546066e-01 -3.45488451984101666709e-03 -4.22378410482999663844e-03
1.33500000000000000000e+10 -3.90881703487349491111e-03 -4.29697033835532704593e-03 +7.39715023701900009634e-01 -6.72895193105877975626e-01 +7.39715023701900009634e-01 -6.72895193105877975626e-01 -3.90881703487349491111e-03 -4.29697033835532704593e-03
1.43000000000000000000e+10 -4.36910767280356340803e-03 -4.32330348272821646943e-03 +7.03357668251815115745e-01 -7.10809545839466871975e-01 +7.03357668251815115745e-01 -7.10809545839466871975e-01 -4.36910767280356340803e-03 -4.32330348272821646943e-03
1.52500000000000000000e+10 -4.83088819445738094915e-03 -4.30232686782059964986e-03 +6.65058074785403019469e-01 -7.46763623689255751081e-01 +6.65058074785403019469e-01 -7.46763623689255751081e-01 -4.83088819445738094915e-03 -4.30232686782059964986e-03
1.62000000000000000000e+10 -5.28925795521554328177e-03 -4.23408398040319051969e-03 +6.24921653954853439927e-01 -7.80658070285230709651e-01 +6.24921653954853439927e-01 -7.80658070285230709651e-01 -5.28925795521554328177e-03 -4.23408398040319051969e-03
1.71500000000000000000e+10 -5.73933491370094174544e-03 -4.11912063972180806509e-03 +5.83058887215609056298e-01 -8.12399179540943983113e-01 +5.83058887215609056298e-01 -8.12399179540943983113e-01 -5.73933491370094174544e-03 -4.11912063972180806509e-03
1.81000000000000000000e+10 -6.17630677309997933033e-03 -3.95848199877319763262e-03 +5.39585024866840567981e-01 -8.41899153458631976932e-01 +5.39585024866840567981e-01 -8.41899153458631976932e-01 -6.17630677309997933033e-03 -3.95848199877319763262e-03
1.90500000000000000000e+10 -6.59548173479948193765e-03 -3.75370436579549465739e-03 +4.94619771098751326299e-01 -8.69076343805559536904e-01 +4.94619771098751326299e-01 -8.69076343805559536904e-01 -6.59548173479948193765e-03 -3.75370436579549465739e-03
2.00000000000000000000e+10 -6.99233834378376779839e-03 -3.50680189181758845615e-03 +4.48286956913005241177e-01 -8.93855477024476652304e-01 +4.48286956913005241177e-01 -8.93855477024476652304e-01 -6.99233834378376779839e-03 -3.50680189181758845615e-03
