<Qucs Dataset 0.0.19>
<indep frequency 21>
  +1.00000000000000000000e+09
  +1.95000000000000000000e+09
  +2.90000000000000000000e+09
  +3.85000000000000000000e+09
  +4.80000000000000000000e+09
  +5.75000000000000000000e+09
  +6.70000000000000000000e+09
  +7.65000000000000000000e+09
  +8.60000000000000000000e+09
  +9.55000000000000000000e+09
  +1.05000000000000000000e+10
  +1.14500000000000000000e+10
  +1.24000000000000000000e+10
  +1.33500000000000000000e+10
  +1.43000000000000000000e+10
  +1.52500000000000000000e+10
  +1.62000000000000000000e+10
  +1.71500000000000000000e+10
  +1.81000000000000000000e+10
  +1.90500000000000000000e+10
  +2.00000000000000000000e+10
</indep>
<dep dBS11 frequency>
  -6.63973520053968400134e+01
  -6.06227907734220039515e+01
  -5.72022218072464312399e+01
  -5.47723528209869101602e+01
  -5.28939495787054525522e+01
  -5.13689640770105313550e+01
  -5.00910228889594719703e+01
  -4.89963641143824304436e+01
  -4.80437574878361459696e+01
  -4.72050173499675196354e+01
  -4.64600386058264120948e+01
  -4.57939920784258802655e+01
  -4.51956419112669820493e+01
  -4.46562862131790083708e+01
  -4.41690631083603406637e+01
  -4.37284808356083942726e+01
  -4.33300905164842831141e+01
  -4.29702527650177472651e+01
  -4.26459677887650983052e+01
  -4.23547495307599319858e+01
  -4.20945310513000663377e+01
</dep>
<dep dBS21 frequency>
  -2.56327802377028651781e-02
  -3.58212723844009706120e-02
  -4.37109758751627885953e-02
  -5.03918022558921402387e-02
  -5.62950142460293956326e-02
  -6.16439482476098254971e-02
  -6.65720133503289734911e-02
  -7.11664294256584284426e-02
  -7.54879053546279599196e-02
  -7.95806924544712607217e-02
  -8.34782091460110620140e-02
  -8.72064111924422125099e-02
  -9.07859227091024623135e-02
  -9.42334434178051794095e-02
  -9.75627118984346286545e-02
  -1.00785185128857354697e-01
  -1.03910530397888625775e-01
  -1.06946989431142211457e-01
  -1.09901653237980317934e-01
  -1.12780673174426693262e-01
  -1.15589425526573003067e-01
</dep>
<dep S[1,1] frequency>
  -5.18725720989613990641e-05-j4.75957691048705452009e-04
  -1.35309196275196577403e-04-j9.20921477110561996667e-04
  -2.62555472219396760121e-04-j1.35482499850929209197e-03
  -4.33331401869517117333e-04-j1.77332516812180019349e-03
  -6.46263523914352767431e-04-j2.17212045284426516489e-03
  -8.99342113932663890855e-04-j2.54705693846730800434e-03
  -1.19005549168474909771e-03-j2.89419437332676067129e-03
  -1.51545655716207004760e-03-j3.20985818960800107016e-03
  -1.87221044736006611217e-03-j3.49068407082744327705e-03
  -2.25663700530801805341e-03-j3.73365715713815755558e-03
  -2.66475270683644510986e-03-j3.93614657578114039010e-03
  -3.09231373661890233950e-03-j4.09593546390928271717e-03
  -3.53486076478802535572e-03-j4.21124644390391544846e-03
  -3.98776547421128037263e-03-j4.28076243256820219985e-03
  -4.44627864313612911062e-03-j4.30364264593414286297e-03
  -4.90557945644997436124e-03-j4.27953367166301282959e-03
  -5.36082564326463735516e-03-j4.20857550761342784351e-03
  -5.80720399334020472709e-03-j4.09140250126939931247e-03
  -6.23998077795750397817e-03-j3.92913916658738354010e-03
  -6.65455158625402349443e-03-j3.72339090017383524470e-03
  -7.04649008264975496713e-03-j3.47622966605247614436e-03
</dep>
<dep S[1,2] frequency>
  +9.95530179401813208884e-01-j5.50897422102429798474e-02
  +9.90103766421354114513e-01-j1.07146169410741953776e-01
  +9.82221659507475974848e-01-j1.58827794449412362798e-01
  +9.71782221906713927773e-01-j2.10007687369084039553e-01
  +9.58766286928222410957e-01-j2.60554123260743897283e-01
  +9.43185457737599985961e-01-j3.10334350645994017093e-01
  +9.25068557015174319780e-01-j3.59216202155057284795e-01
  +9.04456550600201580892e-01-j4.07069040000116455502e-01
  +8.81400193915599650119e-01-j4.53764428388055696129e-01
  +8.55958751912256010641e-01-j4.99176671661330728647e-01
  +8.28199200895576748138e-01-j5.43183276634354728074e-01
  +7.98195665783244745484e-01-j5.85665366736346837406e-01
  +7.66028978462211962430e-01-j6.26508062050017189293e-01
  +7.31786299743326540401e-01-j6.65600832810051001864e-01
  +6.95560774161562922480e-01-j7.02837830536652163893e-01
  +6.57451200402078272944e-01-j7.38118199117346995841e-01
  +6.17561707397181747226e-01-j7.71346367082049289010e-01
  +5.76001430239894252061e-01-j8.02432321684270033479e-01
  +5.32884182476357826097e-01-j8.31291865020086007121e-01
  +4.88328122818349807943e-01-j8.57846852185358499376e-01
  +4.42455415253158124145e-01-j8.82025411333558828630e-01
</dep>
<dep S[2,1] frequency>
  +9.95530179401813208884e-01-j5.50897422102429798474e-02
  +9.90103766421354114513e-01-j1.07146169410741953776e-01
  +9.82221659507475974848e-01-j1.58827794449412362798e-01
  +9.71782221906713927773e-01-j2.10007687369084039553e-01
  +9.58766286928222410957e-01-j2.60554123260743897283e-01
  +9.43185457737599985961e-01-j3.10334350645994017093e-01
  +9.25068557015174319780e-01-j3.59216202155057284795e-01
  +9.04456550600201580892e-01-j4.07069040000116455502e-01
  +8.81400193915599650119e-01-j4.53764428388055696129e-01
  +8.55958751912256010641e-01-j4.99176671661330728647e-01
  +8.28199200895576748138e-01-j5.43183276634354728074e-01
  +7.98195665783244745484e-01-j5.85665366736346837406e-01
  +7.66028978462211962430e-01-j6.26508062050017189293e-01
  +7.31786299743326540401e-01-j6.65600832810051001864e-01
  +6.95560774161562922480e-01-j7.02837830536652163893e-01
  +6.57451200402078272944e-01-j7.38118199117346995841e-01
  +6.17561707397181747226e-01-j7.71346367082049289010e-01
  +5.76001430239894252061e-01-j8.02432321684270033479e-01
  +5.32884182476357826097e-01-j8.31291865020086007121e-01
  +4.88328122818349807943e-01-j8.57846852185358499376e-01
  +4.42455415253158124145e-01-j8.82025411333558828630e-01
</dep>
<dep S[2,2] frequency>
  -5.18725720989613990641e-05-j4.75957691048705452009e-04
  -1.35309196275196577403e-04-j9.20921477110561996667e-04
  -2.62555472219396760121e-04-j1.35482499850929209197e-03
  -4.33331401869517117333e-04-j1.77332516812180019349e-03
  -6.46263523914352767431e-04-j2.17212045284426516489e-03
  -8.99342113932663890855e-04-j2.54705693846730800434e-03
  -1.19005549168474909771e-03-j2.89419437332676067129e-03
  -1.51545655716207004760e-03-j3.20985818960800107016e-03
  -1.87221044736006611217e-03-j3.49068407082744327705e-03
  -2.25663700530801805341e-03-j3.73365715713815755558e-03
  -2.66475270683644510986e-03-j3.93614657578114039010e-03
  -3.09231373661890233950e-03-j4.09593546390928271717e-03
  -3.53486076478802535572e-03-j4.21124644390391544846e-03
  -3.98776547421128037263e-03-j4.28076243256820219985e-03
  -4.44627864313612911062e-03-j4.30364264593414286297e-03
  -4.90557945644997436124e-03-j4.27953367166301282959e-03
  -5.36082564326463735516e-03-j4.20857550761342784351e-03
  -5.80720399334020472709e-03-j4.09140250126939931247e-03
  -6.23998077795750397817e-03-j3.92913916658738354010e-03
  -6.65455158625402349443e-03-j3.72339090017383524470e-03
  -7.04649008264975496713e-03-j3.47622966605247614436e-03
</dep>
